
T0928 000:303 SEGGER J-Link V4.98e Log File (0001ms, 0285ms total)
T0928 000:303 DLL Compiled: May  5 2015 11:00:52 (0001ms, 0285ms total)
T0928 000:303 Logging started @ 2016-01-20 10:41 (0001ms, 0285ms total)
T0928 000:304 JLINK_SetWarnOutHandler(...) (0000ms, 0285ms total)
T0928 000:304 JLINK_OpenEx(...)
Firmware: J-Link ARM V8 compiled Nov 28 2014 13:44:46
Hardware: V8.00
S/N: 20060125
Feature(s): RDI,FlashDL,FlashBP,JFlash,GDBFULL  returns O.K. (0274ms, 0559ms total)
T0928 000:578 JLINK_SetErrorOutHandler(...) (0000ms, 0559ms total)
T0928 000:578 JLINK_ExecCommand("ProjectFile = "C:\Users\jeqi\Documents\gitHUB\EN_FW_STS2\JLinkSettings.ini"", ...)  returns 0x00 (0000ms, 0559ms total)
T0928 000:591 JLINK_ExecCommand("Device = STM32F103C8", ...)Device "STM32F103C8" selected.  returns 0x00 (0003ms, 0562ms total)
T0928 000:594 JLINK_ExecCommand("DisableConnectionTimeout", ...)  returns 0x01 (0000ms, 0562ms total)
T0928 000:594 JLINK_GetHardwareVersion()  returns 0x13880 (0000ms, 0562ms total)
T0928 000:594 JLINK_GetDLLVersion()  returns 49805 (0000ms, 0562ms total)
T0928 000:594 JLINK_GetFirmwareString(...) (0000ms, 0562ms total)
T0928 000:604 JLINK_GetDLLVersion()  returns 49805 (0000ms, 0562ms total)
T0928 000:604 JLINK_GetCompileDateTime() (0000ms, 0562ms total)
T0928 000:607 JLINK_GetFirmwareString(...) (0000ms, 0562ms total)
T0928 000:610 JLINK_GetHardwareVersion()  returns 0x13880 (0000ms, 0562ms total)
T0928 000:620 JLINK_TIF_Select(JLINKARM_TIF_SWD)  returns 0x00 (0004ms, 0566ms total)
T0928 000:624 JLINK_SetSpeed(1000) (0001ms, 0567ms total)
T0928 000:625 JLINK_GetId() >0x108 TIF>Found SWD-DP with ID 0x1BA01477 >0x0D TIF> >0x28 TIF> >0x0D TIF> >0x28 TIF> >0x0D TIF> >0x21 TIF> >0x0D TIF> >0x28 TIF> >0x0D TIF> >0x28 TIF> >0x0D TIF> >0x28 TIF> >0x0D TIF> >0x21 TIF> >0x0D TIF> >0x21 TIF> >0x0D TIF> >0x28 TIF> >0x0D TIF> >0x21 TIF> >0x0D TIF> >0x21 TIF> >0x108 TIF>Found SWD-DP with ID 0x1BA01477 >0x0D TIF> >0x21 TIF> >0x0D TIF> >0x28 TIF> >0x0D TIF> >0x28 TIF> >0x0D TIF> >0x21 TIF> >0x0D TIF> >0x28 TIF> >0x0D TIF> >0x21 TIF> >0x0D TIF> >0x21 TIF>
 >0x0D TIF> >0x21 TIF> >0x0D TIF> >0x21 TIF> >0x0D TIF> >0x28 TIF> >0x0D TIF> >0x28 TIF> >0x0D TIF> >0x21 TIF> >0x0D TIF> >0x28 TIF> >0x0D TIF> >0x28 TIF> >0x0D TIF> >0x28 TIF> >0x0D TIF> >0x21 TIF> >0x0D TIF> >0x21 TIF> >0x0D TIF> >0x28 TIF> >0x0D TIF> >0x21 TIF> >0x0D TIF> >0x21 TIF>Found Cortex-M3 r1p1, Little endian. -- CPU_WriteMem(4 bytes @ 0xE0002000) -- CPU_ReadMem(4 bytes @ 0xE000EDF0) -- CPU_ReadMem(4 bytes @ 0xE0002000)FPUnit: 6 code (BP) slots and 2 literal slots
 -- CPU_ReadMem(4 bytes @ 0xE000EDFC) -- CPU_ReadMem(4 bytes @ 0xE0001000) -- CPU_WriteMem(4 bytes @ 0xE0001000) -- CPU_ReadMem(4 bytes @ 0xE000ED88) -- CPU_WriteMem(4 bytes @ 0xE000ED88) -- CPU_ReadMem(4 bytes @ 0xE000ED88) -- CPU_WriteMem(4 bytes @ 0xE000ED88)CoreSight components:ROMTbl 0 @ E00FF000 -- CPU_ReadMem(16 bytes @ 0xE00FF000) -- CPU_ReadMem(16 bytes @ 0xE000EFF0) -- CPU_ReadMem(16 bytes @ 0xE000EFE0)ROMTbl 0 [0]: FFF0F000, CID: B105E00D, PID: 001BB000 SCS
 -- CPU_ReadMem(16 bytes @ 0xE0001FF0) -- CPU_ReadMem(16 bytes @ 0xE0001FE0)ROMTbl 0 [1]: FFF02000, CID: B105E00D, PID: 001BB002 DWT -- CPU_ReadMem(16 bytes @ 0xE0002FF0) -- CPU_ReadMem(16 bytes @ 0xE0002FE0)ROMTbl 0 [2]: FFF03000, CID: B105E00D, PID: 000BB003 FPB -- CPU_ReadMem(16 bytes @ 0xE0000FF0) -- CPU_ReadMem(16 bytes @ 0xE0000FE0)ROMTbl 0 [3]: FFF01000, CID: B105E00D, PID: 001BB001 ITM -- CPU_ReadMem(16 bytes @ 0xE00FF010) -- CPU_ReadMem(16 bytes @ 0xE0040FF0)
 -- CPU_ReadMem(16 bytes @ 0xE0040FE0)ROMTbl 0 [4]: FFF41000, CID: B105900D, PID: 001BB923 TPIU-Lite >0x0D TIF> >0x21 TIF>  returns 0x1BA01477 (0127ms, 0694ms total)
T0928 000:752 JLINK_GetDLLVersion()  returns 49805 (0000ms, 0694ms total)
T0928 000:752 JLINK_CORE_GetFound()  returns 0x30000FF (0000ms, 0694ms total)
T0928 000:752 JLINK_GetDebugInfo(0x100) -- Value=0xE00FF003  returns 0x00 (0000ms, 0694ms total)
T0928 000:755 JLINK_ReadMem (0xE00FF000, 0x0020 Bytes, ...) -- CPU is running -- CPU_ReadMem(32 bytes @ 0xE00FF000) - Data: 03 F0 F0 FF 03 20 F0 FF 03 30 F0 FF 03 10 F0 FF ...  returns 0x00 (0001ms, 0695ms total)
T0928 000:756 JLINK_ReadMem (0xE000EFF0, 0x0010 Bytes, ...) -- CPU is running -- CPU_ReadMem(16 bytes @ 0xE000EFF0) - Data: 0D 00 00 00 E0 00 00 00 05 00 00 00 B1 00 00 00  returns 0x00 (0001ms, 0696ms total)
T0928 000:757 JLINK_ReadMem (0xE000EFD0, 0x0020 Bytes, ...) -- CPU is running -- CPU_ReadMem(32 bytes @ 0xE000EFD0) - Data: 04 00 00 00 00 00 00 00 00 00 00 00 00 00 00 00 ...  returns 0x00 (0002ms, 0698ms total)
T0928 000:759 JLINK_ReadMem (0xE0001FF0, 0x0010 Bytes, ...) -- CPU is running -- CPU_ReadMem(16 bytes @ 0xE0001FF0) - Data: 0D 00 00 00 E0 00 00 00 05 00 00 00 B1 00 00 00  returns 0x00 (0001ms, 0699ms total)
T0928 000:760 JLINK_ReadMem (0xE0001FD0, 0x0020 Bytes, ...) -- CPU is running -- CPU_ReadMem(32 bytes @ 0xE0001FD0) - Data: 04 00 00 00 00 00 00 00 00 00 00 00 00 00 00 00 ...  returns 0x00 (0002ms, 0701ms total)
T0928 000:762 JLINK_ReadMem (0xE0002FF0, 0x0010 Bytes, ...) -- CPU is running -- CPU_ReadMem(16 bytes @ 0xE0002FF0) - Data: 0D 00 00 00 E0 00 00 00 05 00 00 00 B1 00 00 00  returns 0x00 (0001ms, 0702ms total)
T0928 000:763 JLINK_ReadMem (0xE0002FD0, 0x0020 Bytes, ...) -- CPU is running -- CPU_ReadMem(32 bytes @ 0xE0002FD0) - Data: 04 00 00 00 00 00 00 00 00 00 00 00 00 00 00 00 ...  returns 0x00 (0002ms, 0704ms total)
T0928 000:765 JLINK_ReadMem (0xE0000FF0, 0x0010 Bytes, ...) -- CPU is running -- CPU_ReadMem(16 bytes @ 0xE0000FF0) - Data: 0D 00 00 00 E0 00 00 00 05 00 00 00 B1 00 00 00  returns 0x00 (0001ms, 0705ms total)
T0928 000:766 JLINK_ReadMem (0xE0000FD0, 0x0020 Bytes, ...) -- CPU is running -- CPU_ReadMem(32 bytes @ 0xE0000FD0) - Data: 04 00 00 00 00 00 00 00 00 00 00 00 00 00 00 00 ...  returns 0x00 (0002ms, 0707ms total)
T0928 000:768 JLINK_ReadMem (0xE0040FF0, 0x0010 Bytes, ...) -- CPU is running -- CPU_ReadMem(16 bytes @ 0xE0040FF0) - Data: 0D 00 00 00 90 00 00 00 05 00 00 00 B1 00 00 00  returns 0x00 (0001ms, 0708ms total)
T0928 000:769 JLINK_ReadMem (0xE0040FD0, 0x0020 Bytes, ...) -- CPU is running -- CPU_ReadMem(32 bytes @ 0xE0040FD0) - Data: 04 00 00 00 00 00 00 00 00 00 00 00 00 00 00 00 ...  returns 0x00 (0002ms, 0710ms total)
T0928 000:771 JLINK_ReadMemU32(0xE000ED00, 0x0001 Items, ...) -- CPU is running -- CPU_ReadMem(4 bytes @ 0xE000ED00) - Data: 31 C2 1F 41  returns 0x01 (0001ms, 0711ms total)
T0928 000:772 JLINK_SetResetType(JLINKARM_RESET_TYPE_NORMAL)  returns JLINKARM_RESET_TYPE_NORMAL (0000ms, 0711ms total)
T0928 000:772 JLINK_Reset() -- CPU is running -- CPU_WriteMem(4 bytes @ 0xE000EDF0) -- CPU is running -- CPU_WriteMem(4 bytes @ 0xE000EDFC) >0x35 TIF> -- CPU is running -- CPU_WriteMem(4 bytes @ 0xE000ED0C) -- CPU is running -- CPU_ReadMem(4 bytes @ 0xE000EDF0) -- CPU is running -- CPU_ReadMem(4 bytes @ 0xE000EDF0) -- CPU is running -- CPU_WriteMem(4 bytes @ 0xE000EDF0) -- CPU is running -- CPU_WriteMem(4 bytes @ 0xE000EDFC) -- CPU is running -- CPU_ReadMem(4 bytes @ 0xE000EDF0)
 -- CPU_WriteMem(4 bytes @ 0xE0002000) -- CPU_ReadMem(4 bytes @ 0xE000EDFC) -- CPU_ReadMem(4 bytes @ 0xE0001000) (0026ms, 0737ms total)
T0928 000:798 JLINK_Halt()  returns 0x00 (0000ms, 0737ms total)
T0928 000:798 JLINK_IsHalted()  returns TRUE (0000ms, 0737ms total)
T0928 000:798 JLINK_ReadMemU32(0xE000EDF0, 0x0001 Items, ...) -- CPU_ReadMem(4 bytes @ 0xE000EDF0) - Data: 03 00 03 00  returns 0x01 (0001ms, 0738ms total)
T0928 000:799 JLINK_WriteU32(0xE000EDF0, 0xA05F0003) -- CPU_WriteMem(4 bytes @ 0xE000EDF0)  returns 0x00 (0001ms, 0739ms total)
T0928 000:800 JLINK_WriteU32(0xE000EDFC, 0x01000000) -- CPU_WriteMem(4 bytes @ 0xE000EDFC)  returns 0x00 (0001ms, 0740ms total)
T0928 000:810 JLINK_GetHWStatus(...)  returns 0x00 (0002ms, 0742ms total)
T0928 000:819 JLINK_GetNumBPUnits(Type = 0xFFFFFF00)  returns 0x06 (0000ms, 0742ms total)
T0928 000:819 JLINK_GetNumBPUnits(Type = 0xF0)  returns 0x2000 (0000ms, 0742ms total)
T0928 000:819 JLINK_GetNumWPUnits()  returns 0x04 (0001ms, 0743ms total)
T0928 000:829 JLINK_GetSpeed()  returns 0x3E8 (0000ms, 0743ms total)
T0928 000:835 JLINK_ReadMemU32(0xE000E004, 0x0001 Items, ...) -- CPU_ReadMem(4 bytes @ 0xE000E004) - Data: 01 00 00 00  returns 0x01 (0001ms, 0744ms total)
T0928 000:836 JLINK_ReadMemU32(0xE000E004, 0x0001 Items, ...) -- CPU_ReadMem(4 bytes @ 0xE000E004) - Data: 01 00 00 00  returns 0x01 (0001ms, 0745ms total)
T0928 000:837 JLINK_WriteMem(0xE0001000, 0x001C Bytes, ...) - Data: 01 00 00 00 00 00 00 00 00 00 00 00 00 00 00 00 ... -- CPU_WriteMem(28 bytes @ 0xE0001000)  returns 0x1C (0002ms, 0747ms total)
T0928 000:839 JLINK_ReadMem (0xE0001000, 0x001C Bytes, ...) -- CPU_ReadMem(28 bytes @ 0xE0001000) - Data: 01 00 00 40 00 00 00 00 00 00 00 00 00 00 00 00 ...  returns 0x00 (0002ms, 0749ms total)
T0928 000:841 JLINK_Halt()  returns 0x00 (0000ms, 0749ms total)
T0928 000:841 JLINK_IsHalted()  returns TRUE (0000ms, 0749ms total)
T0928 000:844 JLINK_WriteMem(0x20000000, 0x0164 Bytes, ...) - Data: 00 BE 0A E0 0D 78 2D 06 68 40 08 24 40 00 00 D3 ... -- CPU_WriteMem(356 bytes @ 0x20000000)  returns 0x164 (0006ms, 0755ms total)
T0928 000:850 JLINK_WriteReg(R0, 0x08000000)  returns 0x00 (0000ms, 0755ms total)
T0928 000:850 JLINK_WriteReg(R1, 0x00B71B00)  returns 0x00 (0000ms, 0755ms total)
T0928 000:850 JLINK_WriteReg(R2, 0x00000001)  returns 0x00 (0000ms, 0755ms total)
T0928 000:850 JLINK_WriteReg(R3, 0x00000000)  returns 0x00 (0000ms, 0755ms total)
T0928 000:850 JLINK_WriteReg(R4, 0x00000000)  returns 0x00 (0000ms, 0755ms total)
T0928 000:851 JLINK_WriteReg(R5, 0x00000000)  returns 0x00 (0000ms, 0756ms total)
T0928 000:851 JLINK_WriteReg(R6, 0x00000000)  returns 0x00 (0000ms, 0756ms total)
T0928 000:851 JLINK_WriteReg(R7, 0x00000000)  returns 0x00 (0000ms, 0756ms total)
T0928 000:851 JLINK_WriteReg(R8, 0x00000000)  returns 0x00 (0000ms, 0756ms total)
T0928 000:851 JLINK_WriteReg(R9, 0x20000160)  returns 0x00 (0000ms, 0756ms total)
T0928 000:851 JLINK_WriteReg(R10, 0x00000000)  returns 0x00 (0000ms, 0756ms total)
T0928 000:851 JLINK_WriteReg(R11, 0x00000000)  returns 0x00 (0000ms, 0756ms total)
T0928 000:851 JLINK_WriteReg(R12, 0x00000000)  returns 0x00 (0000ms, 0756ms total)
T0928 000:851 JLINK_WriteReg(R13 (SP), 0x20001000)  returns 0x00 (0000ms, 0756ms total)
T0928 000:851 JLINK_WriteReg(R14, 0x20000001)  returns 0x00 (0000ms, 0756ms total)
T0928 000:851 JLINK_WriteReg(R15 (PC), 0x20000038)  returns 0x00 (0000ms, 0756ms total)
T0928 000:851 JLINK_WriteReg(XPSR, 0x01000000)  returns 0x00 (0000ms, 0756ms total)
T0928 000:851 JLINK_WriteReg(MSP, 0x20001000)  returns 0x00 (0000ms, 0756ms total)
T0928 000:851 JLINK_WriteReg(PSP, 0x20001000)  returns 0x00 (0000ms, 0756ms total)
T0928 000:851 JLINK_WriteReg(CFBP, 0x00000000)  returns 0x00 (0000ms, 0756ms total)
T0928 000:851 JLINK_SetBPEx(Addr = 0x20000000, Type = 0xFFFFFFF2) -- CPU_ReadMem(2 bytes @ 0x20000000)  returns 0x00000001 (0001ms, 0757ms total)
T0928 000:852 JLINK_Go() -- CPU_WriteMem(2 bytes @ 0x20000000) -- CPU_ReadMem(4 bytes @ 0xE0001000) -- CPU_WriteMem(4 bytes @ 0xE0002008) -- CPU_WriteMem(4 bytes @ 0xE000200C) -- CPU_WriteMem(4 bytes @ 0xE0002010) -- CPU_WriteMem(4 bytes @ 0xE0002014) -- CPU_WriteMem(4 bytes @ 0xE0002018) -- CPU_WriteMem(4 bytes @ 0xE000201C) -- CPU_WriteMem(4 bytes @ 0xE0001004) (0013ms, 0770ms total)
T0928 000:865 JLINK_IsHalted() -- CPU_ReadMem(2 bytes @ 0x20000000)  returns TRUE (0006ms, 0776ms total)
T0928 000:871 JLINK_ReadReg(R15 (PC))  returns 0x20000000 (0000ms, 0770ms total)
T0928 000:871 JLINK_ClrBPEx(BPHandle = 0x00000001)  returns 0x00 (0000ms, 0770ms total)
T0928 000:871 JLINK_ReadReg(R0)  returns 0x00000000 (0000ms, 0770ms total)
T0928 000:872 JLINK_WriteReg(R0, 0x08000000)  returns 0x00 (0000ms, 0770ms total)
T0928 000:872 JLINK_WriteReg(R1, 0x00B71B00)  returns 0x00 (0000ms, 0770ms total)
T0928 000:872 JLINK_WriteReg(R2, 0x00000001)  returns 0x00 (0000ms, 0770ms total)
T0928 000:872 JLINK_WriteReg(R3, 0x00000000)  returns 0x00 (0000ms, 0770ms total)
T0928 000:872 JLINK_WriteReg(R4, 0x00000000)  returns 0x00 (0000ms, 0770ms total)
T0928 000:872 JLINK_WriteReg(R5, 0x00000000)  returns 0x00 (0000ms, 0770ms total)
T0928 000:872 JLINK_WriteReg(R6, 0x00000000)  returns 0x00 (0000ms, 0770ms total)
T0928 000:872 JLINK_WriteReg(R7, 0x00000000)  returns 0x00 (0000ms, 0770ms total)
T0928 000:872 JLINK_WriteReg(R8, 0x00000000)  returns 0x00 (0000ms, 0770ms total)
T0928 000:872 JLINK_WriteReg(R9, 0x20000160)  returns 0x00 (0000ms, 0770ms total)
T0928 000:872 JLINK_WriteReg(R10, 0x00000000)  returns 0x00 (0000ms, 0770ms total)
T0928 000:872 JLINK_WriteReg(R11, 0x00000000)  returns 0x00 (0000ms, 0770ms total)
T0928 000:872 JLINK_WriteReg(R12, 0x00000000)  returns 0x00 (0000ms, 0770ms total)
T0928 000:872 JLINK_WriteReg(R13 (SP), 0x20001000)  returns 0x00 (0000ms, 0770ms total)
T0928 000:872 JLINK_WriteReg(R14, 0x20000001)  returns 0x00 (0000ms, 0770ms total)
T0928 000:872 JLINK_WriteReg(R15 (PC), 0x2000007C)  returns 0x00 (0000ms, 0770ms total)
T0928 000:872 JLINK_WriteReg(XPSR, 0x01000000)  returns 0x00 (0000ms, 0770ms total)
T0928 000:872 JLINK_WriteReg(MSP, 0x20001000)  returns 0x00 (0000ms, 0770ms total)
T0928 000:872 JLINK_WriteReg(PSP, 0x20001000)  returns 0x00 (0000ms, 0770ms total)
T0928 000:872 JLINK_WriteReg(CFBP, 0x00000000)  returns 0x00 (0000ms, 0770ms total)
T0928 000:872 JLINK_SetBPEx(Addr = 0x20000000, Type = 0xFFFFFFF2)  returns 0x00000002 (0000ms, 0770ms total)
T0928 000:872 JLINK_Go() -- CPU_ReadMem(4 bytes @ 0xE0001000) (0004ms, 0774ms total)
T0928 000:876 JLINK_IsHalted()  returns FALSE (0001ms, 0775ms total)
T0928 000:926 JLINK_IsHalted() -- CPU_ReadMem(2 bytes @ 0x20000000)  returns TRUE (0006ms, 0780ms total)
T0928 000:932 JLINK_ReadReg(R15 (PC))  returns 0x20000000 (0000ms, 0774ms total)
T0928 000:932 JLINK_ClrBPEx(BPHandle = 0x00000002)  returns 0x00 (0000ms, 0774ms total)
T0928 000:932 JLINK_ReadReg(R0)  returns 0x00000000 (0000ms, 0774ms total)
T0928 000:983 JLINK_WriteReg(R0, 0x00000001)  returns 0x00 (0000ms, 0774ms total)
T0928 000:984 JLINK_WriteReg(R1, 0x00B71B00)  returns 0x00 (0000ms, 0775ms total)
T0928 000:984 JLINK_WriteReg(R2, 0x00000001)  returns 0x00 (0000ms, 0775ms total)
T0928 000:984 JLINK_WriteReg(R3, 0x00000000)  returns 0x00 (0000ms, 0775ms total)
T0928 000:984 JLINK_WriteReg(R4, 0x00000000)  returns 0x00 (0000ms, 0775ms total)
T0928 000:984 JLINK_WriteReg(R5, 0x00000000)  returns 0x00 (0000ms, 0775ms total)
T0928 000:984 JLINK_WriteReg(R6, 0x00000000)  returns 0x00 (0000ms, 0775ms total)
T0928 000:984 JLINK_WriteReg(R7, 0x00000000)  returns 0x00 (0000ms, 0775ms total)
T0928 000:984 JLINK_WriteReg(R8, 0x00000000)  returns 0x00 (0000ms, 0775ms total)
T0928 000:984 JLINK_WriteReg(R9, 0x20000160)  returns 0x00 (0000ms, 0775ms total)
T0928 000:984 JLINK_WriteReg(R10, 0x00000000)  returns 0x00 (0000ms, 0775ms total)
T0928 000:984 JLINK_WriteReg(R11, 0x00000000)  returns 0x00 (0000ms, 0775ms total)
T0928 000:984 JLINK_WriteReg(R12, 0x00000000)  returns 0x00 (0000ms, 0775ms total)
T0928 000:984 JLINK_WriteReg(R13 (SP), 0x20001000)  returns 0x00 (0000ms, 0775ms total)
T0928 000:984 JLINK_WriteReg(R14, 0x20000001)  returns 0x00 (0000ms, 0775ms total)
T0928 000:984 JLINK_WriteReg(R15 (PC), 0x2000006A)  returns 0x00 (0000ms, 0775ms total)
T0928 000:984 JLINK_WriteReg(XPSR, 0x01000000)  returns 0x00 (0000ms, 0775ms total)
T0928 000:984 JLINK_WriteReg(MSP, 0x20001000)  returns 0x00 (0000ms, 0775ms total)
T0928 000:984 JLINK_WriteReg(PSP, 0x20001000)  returns 0x00 (0000ms, 0775ms total)
T0928 000:984 JLINK_WriteReg(CFBP, 0x00000000)  returns 0x00 (0000ms, 0775ms total)
T0928 000:984 JLINK_SetBPEx(Addr = 0x20000000, Type = 0xFFFFFFF2)  returns 0x00000003 (0000ms, 0775ms total)
T0928 000:984 JLINK_Go() -- CPU_ReadMem(4 bytes @ 0xE0001000) (0004ms, 0779ms total)
T0928 000:988 JLINK_IsHalted() -- CPU_ReadMem(2 bytes @ 0x20000000)  returns TRUE (0006ms, 0785ms total)
T0928 000:994 JLINK_ReadReg(R15 (PC))  returns 0x20000000 (0000ms, 0779ms total)
T0928 000:994 JLINK_ClrBPEx(BPHandle = 0x00000003)  returns 0x00 (0000ms, 0779ms total)
T0928 000:994 JLINK_ReadReg(R0)  returns 0x00000000 (0000ms, 0779ms total)
T0928 001:000 JLINK_WriteMem(0x20000000, 0x0164 Bytes, ...) - Data: 00 BE 0A E0 0D 78 2D 06 68 40 08 24 40 00 00 D3 ... -- CPU_WriteMem(356 bytes @ 0x20000000)  returns 0x164 (0006ms, 0785ms total)
T0928 001:006 JLINK_WriteReg(R0, 0x08000000)  returns 0x00 (0001ms, 0786ms total)
T0928 001:007 JLINK_WriteReg(R1, 0x00B71B00)  returns 0x00 (0000ms, 0786ms total)
T0928 001:007 JLINK_WriteReg(R2, 0x00000002)  returns 0x00 (0000ms, 0786ms total)
T0928 001:007 JLINK_WriteReg(R3, 0x00000000)  returns 0x00 (0000ms, 0786ms total)
T0928 001:007 JLINK_WriteReg(R4, 0x00000000)  returns 0x00 (0000ms, 0786ms total)
T0928 001:007 JLINK_WriteReg(R5, 0x00000000)  returns 0x00 (0000ms, 0786ms total)
T0928 001:007 JLINK_WriteReg(R6, 0x00000000)  returns 0x00 (0000ms, 0786ms total)
T0928 001:007 JLINK_WriteReg(R7, 0x00000000)  returns 0x00 (0000ms, 0786ms total)
T0928 001:007 JLINK_WriteReg(R8, 0x00000000)  returns 0x00 (0000ms, 0786ms total)
T0928 001:007 JLINK_WriteReg(R9, 0x20000160)  returns 0x00 (0000ms, 0786ms total)
T0928 001:007 JLINK_WriteReg(R10, 0x00000000)  returns 0x00 (0000ms, 0786ms total)
T0928 001:007 JLINK_WriteReg(R11, 0x00000000)  returns 0x00 (0000ms, 0786ms total)
T0928 001:007 JLINK_WriteReg(R12, 0x00000000)  returns 0x00 (0000ms, 0786ms total)
T0928 001:007 JLINK_WriteReg(R13 (SP), 0x20001000)  returns 0x00 (0000ms, 0786ms total)
T0928 001:007 JLINK_WriteReg(R14, 0x20000001)  returns 0x00 (0000ms, 0786ms total)
T0928 001:007 JLINK_WriteReg(R15 (PC), 0x20000038)  returns 0x00 (0000ms, 0786ms total)
T0928 001:007 JLINK_WriteReg(XPSR, 0x01000000)  returns 0x00 (0000ms, 0786ms total)
T0928 001:007 JLINK_WriteReg(MSP, 0x20001000)  returns 0x00 (0000ms, 0786ms total)
T0928 001:007 JLINK_WriteReg(PSP, 0x20001000)  returns 0x00 (0000ms, 0786ms total)
T0928 001:007 JLINK_WriteReg(CFBP, 0x00000000)  returns 0x00 (0000ms, 0786ms total)
T0928 001:007 JLINK_SetBPEx(Addr = 0x20000000, Type = 0xFFFFFFF2) -- CPU_ReadMem(2 bytes @ 0x20000000)  returns 0x00000004 (0002ms, 0788ms total)
T0928 001:009 JLINK_Go() -- CPU_WriteMem(2 bytes @ 0x20000000) -- CPU_ReadMem(4 bytes @ 0xE0001000) (0005ms, 0793ms total)
T0928 001:014 JLINK_IsHalted() -- CPU_ReadMem(2 bytes @ 0x20000000)  returns TRUE (0006ms, 0799ms total)
T0928 001:020 JLINK_ReadReg(R15 (PC))  returns 0x20000000 (0000ms, 0793ms total)
T0928 001:020 JLINK_ClrBPEx(BPHandle = 0x00000004)  returns 0x00 (0000ms, 0793ms total)
T0928 001:020 JLINK_ReadReg(R0)  returns 0x00000000 (0000ms, 0793ms total)
T0928 001:020 JLINK_WriteMem(0x20000164, 0x0400 Bytes, ...) - Data: 50 0E 00 20 89 01 00 08 9B 09 00 08 93 09 00 08 ... -- CPU_WriteMem(1024 bytes @ 0x20000164)  returns 0x400 (0015ms, 0808ms total)
T0928 001:036 JLINK_WriteReg(R0, 0x08000000)  returns 0x00 (0000ms, 0808ms total)
T0928 001:036 JLINK_WriteReg(R1, 0x00000400)  returns 0x00 (0000ms, 0808ms total)
T0928 001:036 JLINK_WriteReg(R2, 0x20000164)  returns 0x00 (0000ms, 0808ms total)
T0928 001:036 JLINK_WriteReg(R3, 0x00000000)  returns 0x00 (0000ms, 0808ms total)
T0928 001:036 JLINK_WriteReg(R4, 0x00000000)  returns 0x00 (0000ms, 0808ms total)
T0928 001:036 JLINK_WriteReg(R5, 0x00000000)  returns 0x00 (0000ms, 0808ms total)
T0928 001:036 JLINK_WriteReg(R6, 0x00000000)  returns 0x00 (0000ms, 0808ms total)
T0928 001:036 JLINK_WriteReg(R7, 0x00000000)  returns 0x00 (0000ms, 0808ms total)
T0928 001:036 JLINK_WriteReg(R8, 0x00000000)  returns 0x00 (0000ms, 0808ms total)
T0928 001:036 JLINK_WriteReg(R9, 0x20000160)  returns 0x00 (0000ms, 0808ms total)
T0928 001:036 JLINK_WriteReg(R10, 0x00000000)  returns 0x00 (0000ms, 0808ms total)
T0928 001:036 JLINK_WriteReg(R11, 0x00000000)  returns 0x00 (0000ms, 0808ms total)
T0928 001:036 JLINK_WriteReg(R12, 0x00000000)  returns 0x00 (0000ms, 0808ms total)
T0928 001:036 JLINK_WriteReg(R13 (SP), 0x20001000)  returns 0x00 (0000ms, 0808ms total)
T0928 001:036 JLINK_WriteReg(R14, 0x20000001)  returns 0x00 (0000ms, 0808ms total)
T0928 001:036 JLINK_WriteReg(R15 (PC), 0x200000F4)  returns 0x00 (0000ms, 0808ms total)
T0928 001:036 JLINK_WriteReg(XPSR, 0x01000000)  returns 0x00 (0000ms, 0808ms total)
T0928 001:036 JLINK_WriteReg(MSP, 0x20001000)  returns 0x00 (0000ms, 0808ms total)
T0928 001:036 JLINK_WriteReg(PSP, 0x20001000)  returns 0x00 (0000ms, 0808ms total)
T0928 001:036 JLINK_WriteReg(CFBP, 0x00000000)  returns 0x00 (0000ms, 0808ms total)
T0928 001:036 JLINK_SetBPEx(Addr = 0x20000000, Type = 0xFFFFFFF2)  returns 0x00000005 (0000ms, 0808ms total)
T0928 001:036 JLINK_Go() -- CPU_ReadMem(4 bytes @ 0xE0001000) (0004ms, 0812ms total)
T0928 001:040 JLINK_IsHalted()  returns FALSE (0001ms, 0813ms total)
T0928 001:067 JLINK_IsHalted()  returns FALSE (0001ms, 0813ms total)
T0928 001:070 JLINK_IsHalted()  returns FALSE (0001ms, 0813ms total)
T0928 001:078 JLINK_IsHalted() -- CPU_ReadMem(2 bytes @ 0x20000000)  returns TRUE (0006ms, 0818ms total)
T0928 001:084 JLINK_ReadReg(R15 (PC))  returns 0x20000000 (0000ms, 0812ms total)
T0928 001:084 JLINK_ClrBPEx(BPHandle = 0x00000005)  returns 0x00 (0000ms, 0812ms total)
T0928 001:084 JLINK_ReadReg(R0)  returns 0x00000000 (0000ms, 0812ms total)
T0928 001:084 JLINK_WriteMem(0x20000164, 0x0400 Bytes, ...) - Data: 00 BD 00 00 00 08 01 40 08 00 02 40 4C 24 01 40 ... -- CPU_WriteMem(1024 bytes @ 0x20000164)  returns 0x400 (0016ms, 0828ms total)
T0928 001:100 JLINK_WriteReg(R0, 0x08000400)  returns 0x00 (0000ms, 0828ms total)
T0928 001:100 JLINK_WriteReg(R1, 0x00000400)  returns 0x00 (0000ms, 0828ms total)
T0928 001:100 JLINK_WriteReg(R2, 0x20000164)  returns 0x00 (0000ms, 0828ms total)
T0928 001:100 JLINK_WriteReg(R3, 0x00000000)  returns 0x00 (0000ms, 0828ms total)
T0928 001:100 JLINK_WriteReg(R4, 0x00000000)  returns 0x00 (0000ms, 0828ms total)
T0928 001:100 JLINK_WriteReg(R5, 0x00000000)  returns 0x00 (0000ms, 0828ms total)
T0928 001:100 JLINK_WriteReg(R6, 0x00000000)  returns 0x00 (0000ms, 0828ms total)
T0928 001:100 JLINK_WriteReg(R7, 0x00000000)  returns 0x00 (0000ms, 0828ms total)
T0928 001:100 JLINK_WriteReg(R8, 0x00000000)  returns 0x00 (0000ms, 0828ms total)
T0928 001:100 JLINK_WriteReg(R9, 0x20000160)  returns 0x00 (0000ms, 0828ms total)
T0928 001:100 JLINK_WriteReg(R10, 0x00000000)  returns 0x00 (0000ms, 0828ms total)
T0928 001:100 JLINK_WriteReg(R11, 0x00000000)  returns 0x00 (0000ms, 0828ms total)
T0928 001:100 JLINK_WriteReg(R12, 0x00000000)  returns 0x00 (0000ms, 0828ms total)
T0928 001:100 JLINK_WriteReg(R13 (SP), 0x20001000)  returns 0x00 (0000ms, 0828ms total)
T0928 001:100 JLINK_WriteReg(R14, 0x20000001)  returns 0x00 (0000ms, 0828ms total)
T0928 001:100 JLINK_WriteReg(R15 (PC), 0x200000F4)  returns 0x00 (0000ms, 0828ms total)
T0928 001:100 JLINK_WriteReg(XPSR, 0x01000000)  returns 0x00 (0000ms, 0828ms total)
T0928 001:100 JLINK_WriteReg(MSP, 0x20001000)  returns 0x00 (0000ms, 0828ms total)
T0928 001:100 JLINK_WriteReg(PSP, 0x20001000)  returns 0x00 (0000ms, 0828ms total)
T0928 001:100 JLINK_WriteReg(CFBP, 0x00000000)  returns 0x00 (0000ms, 0828ms total)
T0928 001:100 JLINK_SetBPEx(Addr = 0x20000000, Type = 0xFFFFFFF2)  returns 0x00000006 (0000ms, 0828ms total)
T0928 001:100 JLINK_Go() -- CPU_ReadMem(4 bytes @ 0xE0001000) (0005ms, 0833ms total)
T0928 001:105 JLINK_IsHalted()  returns FALSE (0001ms, 0834ms total)
T0928 001:112 JLINK_IsHalted()  returns FALSE (0001ms, 0834ms total)
T0928 001:114 JLINK_IsHalted()  returns FALSE (0001ms, 0834ms total)
T0928 001:116 JLINK_IsHalted()  returns FALSE (0001ms, 0834ms total)
T0928 001:121 JLINK_IsHalted()  returns FALSE (0001ms, 0834ms total)
T0928 001:123 JLINK_IsHalted()  returns FALSE (0001ms, 0834ms total)
T0928 001:125 JLINK_IsHalted()  returns FALSE (0001ms, 0834ms total)
T0928 001:127 JLINK_IsHalted()  returns FALSE (0001ms, 0834ms total)
T0928 001:129 JLINK_IsHalted()  returns FALSE (0001ms, 0834ms total)
T0928 001:132 JLINK_IsHalted()  returns FALSE (0001ms, 0834ms total)
T0928 001:134 JLINK_IsHalted()  returns FALSE (0001ms, 0834ms total)
T0928 001:136 JLINK_IsHalted() -- CPU_ReadMem(2 bytes @ 0x20000000)  returns TRUE (0006ms, 0839ms total)
T0928 001:142 JLINK_ReadReg(R15 (PC))  returns 0x20000000 (0000ms, 0833ms total)
T0928 001:142 JLINK_ClrBPEx(BPHandle = 0x00000006)  returns 0x00 (0000ms, 0833ms total)
T0928 001:142 JLINK_ReadReg(R0)  returns 0x00000000 (0000ms, 0833ms total)
T0928 001:142 JLINK_WriteMem(0x20000164, 0x0400 Bytes, ...) - Data: 91 F8 00 C0 BC F1 00 0F 31 D0 14 68 00 20 2B E0 ... -- CPU_WriteMem(1024 bytes @ 0x20000164)  returns 0x400 (0016ms, 0849ms total)
T0928 001:158 JLINK_WriteReg(R0, 0x08000800)  returns 0x00 (0000ms, 0849ms total)
T0928 001:158 JLINK_WriteReg(R1, 0x00000400)  returns 0x00 (0000ms, 0849ms total)
T0928 001:158 JLINK_WriteReg(R2, 0x20000164)  returns 0x00 (0000ms, 0849ms total)
T0928 001:158 JLINK_WriteReg(R3, 0x00000000)  returns 0x00 (0000ms, 0849ms total)
T0928 001:158 JLINK_WriteReg(R4, 0x00000000)  returns 0x00 (0000ms, 0849ms total)
T0928 001:158 JLINK_WriteReg(R5, 0x00000000)  returns 0x00 (0000ms, 0849ms total)
T0928 001:158 JLINK_WriteReg(R6, 0x00000000)  returns 0x00 (0000ms, 0849ms total)
T0928 001:158 JLINK_WriteReg(R7, 0x00000000)  returns 0x00 (0000ms, 0849ms total)
T0928 001:158 JLINK_WriteReg(R8, 0x00000000)  returns 0x00 (0000ms, 0849ms total)
T0928 001:158 JLINK_WriteReg(R9, 0x20000160)  returns 0x00 (0000ms, 0849ms total)
T0928 001:158 JLINK_WriteReg(R10, 0x00000000)  returns 0x00 (0000ms, 0849ms total)
T0928 001:158 JLINK_WriteReg(R11, 0x00000000)  returns 0x00 (0000ms, 0849ms total)
T0928 001:158 JLINK_WriteReg(R12, 0x00000000)  returns 0x00 (0000ms, 0849ms total)
T0928 001:158 JLINK_WriteReg(R13 (SP), 0x20001000)  returns 0x00 (0000ms, 0849ms total)
T0928 001:158 JLINK_WriteReg(R14, 0x20000001)  returns 0x00 (0000ms, 0849ms total)
T0928 001:158 JLINK_WriteReg(R15 (PC), 0x200000F4)  returns 0x00 (0000ms, 0849ms total)
T0928 001:158 JLINK_WriteReg(XPSR, 0x01000000)  returns 0x00 (0000ms, 0849ms total)
T0928 001:158 JLINK_WriteReg(MSP, 0x20001000)  returns 0x00 (0000ms, 0849ms total)
T0928 001:158 JLINK_WriteReg(PSP, 0x20001000)  returns 0x00 (0000ms, 0849ms total)
T0928 001:158 JLINK_WriteReg(CFBP, 0x00000000)  returns 0x00 (0000ms, 0849ms total)
T0928 001:158 JLINK_SetBPEx(Addr = 0x20000000, Type = 0xFFFFFFF2)  returns 0x00000007 (0000ms, 0849ms total)
T0928 001:158 JLINK_Go() -- CPU_ReadMem(4 bytes @ 0xE0001000) (0005ms, 0854ms total)
T0928 001:163 JLINK_IsHalted()  returns FALSE (0001ms, 0855ms total)
T0928 001:175 JLINK_IsHalted()  returns FALSE (0001ms, 0855ms total)
T0928 001:177 JLINK_IsHalted()  returns FALSE (0001ms, 0855ms total)
T0928 001:179 JLINK_IsHalted()  returns FALSE (0001ms, 0855ms total)
T0928 001:184 JLINK_IsHalted()  returns FALSE (0001ms, 0855ms total)
T0928 001:186 JLINK_IsHalted()  returns FALSE (0001ms, 0855ms total)
T0928 001:188 JLINK_IsHalted()  returns FALSE (0001ms, 0855ms total)
T0928 001:190 JLINK_IsHalted()  returns FALSE (0001ms, 0855ms total)
T0928 001:192 JLINK_IsHalted()  returns FALSE (0001ms, 0855ms total)
T0928 001:194 JLINK_IsHalted() -- CPU_ReadMem(2 bytes @ 0x20000000)  returns TRUE (0006ms, 0860ms total)
T0928 001:200 JLINK_ReadReg(R15 (PC))  returns 0x20000000 (0000ms, 0854ms total)
T0928 001:200 JLINK_ClrBPEx(BPHandle = 0x00000007)  returns 0x00 (0000ms, 0854ms total)
T0928 001:200 JLINK_ReadReg(R0)  returns 0x00000000 (0000ms, 0854ms total)
T0928 001:200 JLINK_WriteMem(0x20000164, 0x0400 Bytes, ...) - Data: 4F F4 80 41 06 48 FF F7 C0 FE 4F F4 80 51 04 48 ... -- CPU_WriteMem(1024 bytes @ 0x20000164)  returns 0x400 (0016ms, 0870ms total)
T0928 001:216 JLINK_WriteReg(R0, 0x08000C00)  returns 0x00 (0000ms, 0870ms total)
T0928 001:216 JLINK_WriteReg(R1, 0x00000400)  returns 0x00 (0000ms, 0870ms total)
T0928 001:216 JLINK_WriteReg(R2, 0x20000164)  returns 0x00 (0000ms, 0870ms total)
T0928 001:216 JLINK_WriteReg(R3, 0x00000000)  returns 0x00 (0000ms, 0870ms total)
T0928 001:216 JLINK_WriteReg(R4, 0x00000000)  returns 0x00 (0000ms, 0870ms total)
T0928 001:216 JLINK_WriteReg(R5, 0x00000000)  returns 0x00 (0000ms, 0870ms total)
T0928 001:216 JLINK_WriteReg(R6, 0x00000000)  returns 0x00 (0000ms, 0870ms total)
T0928 001:216 JLINK_WriteReg(R7, 0x00000000)  returns 0x00 (0000ms, 0870ms total)
T0928 001:216 JLINK_WriteReg(R8, 0x00000000)  returns 0x00 (0000ms, 0870ms total)
T0928 001:216 JLINK_WriteReg(R9, 0x20000160)  returns 0x00 (0000ms, 0870ms total)
T0928 001:216 JLINK_WriteReg(R10, 0x00000000)  returns 0x00 (0000ms, 0870ms total)
T0928 001:216 JLINK_WriteReg(R11, 0x00000000)  returns 0x00 (0000ms, 0870ms total)
T0928 001:216 JLINK_WriteReg(R12, 0x00000000)  returns 0x00 (0000ms, 0870ms total)
T0928 001:216 JLINK_WriteReg(R13 (SP), 0x20001000)  returns 0x00 (0000ms, 0870ms total)
T0928 001:216 JLINK_WriteReg(R14, 0x20000001)  returns 0x00 (0000ms, 0870ms total)
T0928 001:216 JLINK_WriteReg(R15 (PC), 0x200000F4)  returns 0x00 (0000ms, 0870ms total)
T0928 001:216 JLINK_WriteReg(XPSR, 0x01000000)  returns 0x00 (0000ms, 0870ms total)
T0928 001:216 JLINK_WriteReg(MSP, 0x20001000)  returns 0x00 (0000ms, 0870ms total)
T0928 001:216 JLINK_WriteReg(PSP, 0x20001000)  returns 0x00 (0000ms, 0870ms total)
T0928 001:216 JLINK_WriteReg(CFBP, 0x00000000)  returns 0x00 (0000ms, 0870ms total)
T0928 001:216 JLINK_SetBPEx(Addr = 0x20000000, Type = 0xFFFFFFF2)  returns 0x00000008 (0000ms, 0870ms total)
T0928 001:216 JLINK_Go() -- CPU_ReadMem(4 bytes @ 0xE0001000) (0005ms, 0875ms total)
T0928 001:221 JLINK_IsHalted()  returns FALSE (0001ms, 0876ms total)
T0928 001:225 JLINK_IsHalted()  returns FALSE (0001ms, 0876ms total)
T0928 001:227 JLINK_IsHalted()  returns FALSE (0001ms, 0876ms total)
T0928 001:231 JLINK_IsHalted()  returns FALSE (0001ms, 0876ms total)
T0928 001:233 JLINK_IsHalted()  returns FALSE (0001ms, 0876ms total)
T0928 001:235 JLINK_IsHalted()  returns FALSE (0001ms, 0876ms total)
T0928 001:237 JLINK_IsHalted()  returns FALSE (0001ms, 0876ms total)
T0928 001:239 JLINK_IsHalted()  returns FALSE (0001ms, 0876ms total)
T0928 001:241 JLINK_IsHalted()  returns FALSE (0001ms, 0876ms total)
T0928 001:243 JLINK_IsHalted()  returns FALSE (0001ms, 0876ms total)
T0928 001:245 JLINK_IsHalted()  returns FALSE (0001ms, 0876ms total)
T0928 001:247 JLINK_IsHalted()  returns FALSE (0001ms, 0876ms total)
T0928 001:249 JLINK_IsHalted()  returns FALSE (0001ms, 0876ms total)
T0928 001:251 JLINK_IsHalted()  returns FALSE (0001ms, 0876ms total)
T0928 001:253 JLINK_IsHalted() -- CPU_ReadMem(2 bytes @ 0x20000000)  returns TRUE (0006ms, 0881ms total)
T0928 001:259 JLINK_ReadReg(R15 (PC))  returns 0x20000000 (0000ms, 0875ms total)
T0928 001:259 JLINK_ClrBPEx(BPHandle = 0x00000008)  returns 0x00 (0000ms, 0875ms total)
T0928 001:259 JLINK_ReadReg(R0)  returns 0x00000000 (0000ms, 0875ms total)
T0928 001:259 JLINK_WriteMem(0x20000164, 0x0400 Bytes, ...) - Data: 4F F4 00 41 20 48 FF F7 C0 FC 4F F4 00 71 1D 48 ... -- CPU_WriteMem(1024 bytes @ 0x20000164)  returns 0x400 (0016ms, 0891ms total)
T0928 001:275 JLINK_WriteReg(R0, 0x08001000)  returns 0x00 (0000ms, 0891ms total)
T0928 001:275 JLINK_WriteReg(R1, 0x00000400)  returns 0x00 (0000ms, 0891ms total)
T0928 001:275 JLINK_WriteReg(R2, 0x20000164)  returns 0x00 (0000ms, 0891ms total)
T0928 001:275 JLINK_WriteReg(R3, 0x00000000)  returns 0x00 (0000ms, 0891ms total)
T0928 001:275 JLINK_WriteReg(R4, 0x00000000)  returns 0x00 (0000ms, 0891ms total)
T0928 001:275 JLINK_WriteReg(R5, 0x00000000)  returns 0x00 (0000ms, 0891ms total)
T0928 001:275 JLINK_WriteReg(R6, 0x00000000)  returns 0x00 (0000ms, 0891ms total)
T0928 001:275 JLINK_WriteReg(R7, 0x00000000)  returns 0x00 (0000ms, 0891ms total)
T0928 001:275 JLINK_WriteReg(R8, 0x00000000)  returns 0x00 (0000ms, 0891ms total)
T0928 001:275 JLINK_WriteReg(R9, 0x20000160)  returns 0x00 (0000ms, 0891ms total)
T0928 001:275 JLINK_WriteReg(R10, 0x00000000)  returns 0x00 (0000ms, 0891ms total)
T0928 001:275 JLINK_WriteReg(R11, 0x00000000)  returns 0x00 (0000ms, 0891ms total)
T0928 001:275 JLINK_WriteReg(R12, 0x00000000)  returns 0x00 (0000ms, 0891ms total)
T0928 001:275 JLINK_WriteReg(R13 (SP), 0x20001000)  returns 0x00 (0000ms, 0891ms total)
T0928 001:275 JLINK_WriteReg(R14, 0x20000001)  returns 0x00 (0000ms, 0891ms total)
T0928 001:275 JLINK_WriteReg(R15 (PC), 0x200000F4)  returns 0x00 (0000ms, 0891ms total)
T0928 001:275 JLINK_WriteReg(XPSR, 0x01000000)  returns 0x00 (0000ms, 0891ms total)
T0928 001:275 JLINK_WriteReg(MSP, 0x20001000)  returns 0x00 (0000ms, 0891ms total)
T0928 001:275 JLINK_WriteReg(PSP, 0x20001000)  returns 0x00 (0001ms, 0892ms total)
T0928 001:276 JLINK_WriteReg(CFBP, 0x00000000)  returns 0x00 (0000ms, 0892ms total)
T0928 001:276 JLINK_SetBPEx(Addr = 0x20000000, Type = 0xFFFFFFF2)  returns 0x00000009 (0000ms, 0892ms total)
T0928 001:276 JLINK_Go() -- CPU_ReadMem(4 bytes @ 0xE0001000) (0004ms, 0896ms total)
T0928 001:280 JLINK_IsHalted()  returns FALSE (0001ms, 0897ms total)
T0928 001:290 JLINK_IsHalted()  returns FALSE (0001ms, 0897ms total)
T0928 001:296 JLINK_IsHalted()  returns FALSE (0001ms, 0897ms total)
T0928 001:298 JLINK_IsHalted()  returns FALSE (0001ms, 0897ms total)
T0928 001:300 JLINK_IsHalted()  returns FALSE (0001ms, 0897ms total)
T0928 001:302 JLINK_IsHalted()  returns FALSE (0001ms, 0897ms total)
T0928 001:304 JLINK_IsHalted()  returns FALSE (0001ms, 0897ms total)
T0928 001:308 JLINK_IsHalted()  returns FALSE (0001ms, 0897ms total)
T0928 001:310 JLINK_IsHalted()  returns FALSE (0001ms, 0897ms total)
T0928 001:312 JLINK_IsHalted() -- CPU_ReadMem(2 bytes @ 0x20000000)  returns TRUE (0006ms, 0902ms total)
T0928 001:318 JLINK_ReadReg(R15 (PC))  returns 0x20000000 (0000ms, 0896ms total)
T0928 001:318 JLINK_ClrBPEx(BPHandle = 0x00000009)  returns 0x00 (0000ms, 0896ms total)
T0928 001:318 JLINK_ReadReg(R0)  returns 0x00000000 (0000ms, 0896ms total)
T0928 001:318 JLINK_WriteMem(0x20000164, 0x0400 Bytes, ...) - Data: FF F7 4E FD 09 E0 FF F7 A3 FD 06 E0 FF F7 44 FE ... -- CPU_WriteMem(1024 bytes @ 0x20000164)  returns 0x400 (0016ms, 0912ms total)
T0928 001:334 JLINK_WriteReg(R0, 0x08001400)  returns 0x00 (0000ms, 0912ms total)
T0928 001:334 JLINK_WriteReg(R1, 0x00000400)  returns 0x00 (0000ms, 0912ms total)
T0928 001:334 JLINK_WriteReg(R2, 0x20000164)  returns 0x00 (0000ms, 0912ms total)
T0928 001:334 JLINK_WriteReg(R3, 0x00000000)  returns 0x00 (0000ms, 0912ms total)
T0928 001:334 JLINK_WriteReg(R4, 0x00000000)  returns 0x00 (0000ms, 0912ms total)
T0928 001:334 JLINK_WriteReg(R5, 0x00000000)  returns 0x00 (0000ms, 0912ms total)
T0928 001:334 JLINK_WriteReg(R6, 0x00000000)  returns 0x00 (0000ms, 0912ms total)
T0928 001:334 JLINK_WriteReg(R7, 0x00000000)  returns 0x00 (0000ms, 0912ms total)
T0928 001:334 JLINK_WriteReg(R8, 0x00000000)  returns 0x00 (0000ms, 0912ms total)
T0928 001:334 JLINK_WriteReg(R9, 0x20000160)  returns 0x00 (0000ms, 0912ms total)
T0928 001:334 JLINK_WriteReg(R10, 0x00000000)  returns 0x00 (0000ms, 0912ms total)
T0928 001:334 JLINK_WriteReg(R11, 0x00000000)  returns 0x00 (0000ms, 0912ms total)
T0928 001:334 JLINK_WriteReg(R12, 0x00000000)  returns 0x00 (0000ms, 0912ms total)
T0928 001:334 JLINK_WriteReg(R13 (SP), 0x20001000)  returns 0x00 (0000ms, 0912ms total)
T0928 001:334 JLINK_WriteReg(R14, 0x20000001)  returns 0x00 (0000ms, 0912ms total)
T0928 001:334 JLINK_WriteReg(R15 (PC), 0x200000F4)  returns 0x00 (0000ms, 0912ms total)
T0928 001:334 JLINK_WriteReg(XPSR, 0x01000000)  returns 0x00 (0000ms, 0912ms total)
T0928 001:334 JLINK_WriteReg(MSP, 0x20001000)  returns 0x00 (0000ms, 0912ms total)
T0928 001:334 JLINK_WriteReg(PSP, 0x20001000)  returns 0x00 (0000ms, 0912ms total)
T0928 001:334 JLINK_WriteReg(CFBP, 0x00000000)  returns 0x00 (0000ms, 0912ms total)
T0928 001:334 JLINK_SetBPEx(Addr = 0x20000000, Type = 0xFFFFFFF2)  returns 0x0000000A (0000ms, 0912ms total)
T0928 001:334 JLINK_Go() -- CPU_ReadMem(4 bytes @ 0xE0001000) (0005ms, 0917ms total)
T0928 001:339 JLINK_IsHalted()  returns FALSE (0001ms, 0918ms total)
T0928 001:344 JLINK_IsHalted()  returns FALSE (0001ms, 0918ms total)
T0928 001:346 JLINK_IsHalted()  returns FALSE (0001ms, 0918ms total)
T0928 001:348 JLINK_IsHalted()  returns FALSE (0001ms, 0918ms total)
T0928 001:350 JLINK_IsHalted()  returns FALSE (0001ms, 0918ms total)
T0928 001:352 JLINK_IsHalted()  returns FALSE (0001ms, 0918ms total)
T0928 001:354 JLINK_IsHalted()  returns FALSE (0001ms, 0918ms total)
T0928 001:356 JLINK_IsHalted()  returns FALSE (0001ms, 0918ms total)
T0928 001:358 JLINK_IsHalted()  returns FALSE (0001ms, 0918ms total)
T0928 001:360 JLINK_IsHalted()  returns FALSE (0001ms, 0918ms total)
T0928 001:362 JLINK_IsHalted()  returns FALSE (0001ms, 0918ms total)
T0928 001:364 JLINK_IsHalted()  returns FALSE (0001ms, 0918ms total)
T0928 001:366 JLINK_IsHalted()  returns FALSE (0001ms, 0918ms total)
T0928 001:370 JLINK_IsHalted() -- CPU_ReadMem(2 bytes @ 0x20000000)  returns TRUE (0006ms, 0923ms total)
T0928 001:376 JLINK_ReadReg(R15 (PC))  returns 0x20000000 (0000ms, 0917ms total)
T0928 001:376 JLINK_ClrBPEx(BPHandle = 0x0000000A)  returns 0x00 (0000ms, 0917ms total)
T0928 001:376 JLINK_ReadReg(R0)  returns 0x00000000 (0000ms, 0917ms total)
T0928 001:376 JLINK_WriteMem(0x20000164, 0x0400 Bytes, ...) - Data: 31 68 49 00 B0 FB F1 F8 07 E0 0A EB CA 00 00 EB ... -- CPU_WriteMem(1024 bytes @ 0x20000164)  returns 0x400 (0016ms, 0933ms total)
T0928 001:392 JLINK_WriteReg(R0, 0x08001800)  returns 0x00 (0000ms, 0933ms total)
T0928 001:392 JLINK_WriteReg(R1, 0x00000400)  returns 0x00 (0000ms, 0933ms total)
T0928 001:392 JLINK_WriteReg(R2, 0x20000164)  returns 0x00 (0000ms, 0933ms total)
T0928 001:392 JLINK_WriteReg(R3, 0x00000000)  returns 0x00 (0000ms, 0933ms total)
T0928 001:392 JLINK_WriteReg(R4, 0x00000000)  returns 0x00 (0000ms, 0933ms total)
T0928 001:392 JLINK_WriteReg(R5, 0x00000000)  returns 0x00 (0000ms, 0933ms total)
T0928 001:392 JLINK_WriteReg(R6, 0x00000000)  returns 0x00 (0000ms, 0933ms total)
T0928 001:392 JLINK_WriteReg(R7, 0x00000000)  returns 0x00 (0000ms, 0933ms total)
T0928 001:392 JLINK_WriteReg(R8, 0x00000000)  returns 0x00 (0000ms, 0933ms total)
T0928 001:392 JLINK_WriteReg(R9, 0x20000160)  returns 0x00 (0000ms, 0933ms total)
T0928 001:392 JLINK_WriteReg(R10, 0x00000000)  returns 0x00 (0000ms, 0933ms total)
T0928 001:392 JLINK_WriteReg(R11, 0x00000000)  returns 0x00 (0000ms, 0933ms total)
T0928 001:392 JLINK_WriteReg(R12, 0x00000000)  returns 0x00 (0000ms, 0933ms total)
T0928 001:392 JLINK_WriteReg(R13 (SP), 0x20001000)  returns 0x00 (0000ms, 0933ms total)
T0928 001:392 JLINK_WriteReg(R14, 0x20000001)  returns 0x00 (0000ms, 0933ms total)
T0928 001:392 JLINK_WriteReg(R15 (PC), 0x200000F4)  returns 0x00 (0000ms, 0933ms total)
T0928 001:392 JLINK_WriteReg(XPSR, 0x01000000)  returns 0x00 (0000ms, 0933ms total)
T0928 001:392 JLINK_WriteReg(MSP, 0x20001000)  returns 0x00 (0000ms, 0933ms total)
T0928 001:392 JLINK_WriteReg(PSP, 0x20001000)  returns 0x00 (0000ms, 0933ms total)
T0928 001:392 JLINK_WriteReg(CFBP, 0x00000000)  returns 0x00 (0000ms, 0933ms total)
T0928 001:392 JLINK_SetBPEx(Addr = 0x20000000, Type = 0xFFFFFFF2)  returns 0x0000000B (0000ms, 0933ms total)
T0928 001:392 JLINK_Go() -- CPU_ReadMem(4 bytes @ 0xE0001000) (0005ms, 0938ms total)
T0928 001:397 JLINK_IsHalted()  returns FALSE (0001ms, 0939ms total)
T0928 001:408 JLINK_IsHalted()  returns FALSE (0001ms, 0939ms total)
T0928 001:410 JLINK_IsHalted()  returns FALSE (0001ms, 0939ms total)
T0928 001:412 JLINK_IsHalted()  returns FALSE (0001ms, 0939ms total)
T0928 001:414 JLINK_IsHalted()  returns FALSE (0001ms, 0939ms total)
T0928 001:416 JLINK_IsHalted()  returns FALSE (0001ms, 0939ms total)
T0928 001:420 JLINK_IsHalted()  returns FALSE (0001ms, 0939ms total)
T0928 001:422 JLINK_IsHalted()  returns FALSE (0001ms, 0939ms total)
T0928 001:424 JLINK_IsHalted()  returns FALSE (0001ms, 0939ms total)
T0928 001:426 JLINK_IsHalted()  returns FALSE (0001ms, 0939ms total)
T0928 001:428 JLINK_IsHalted() -- CPU_ReadMem(2 bytes @ 0x20000000)  returns TRUE (0006ms, 0944ms total)
T0928 001:434 JLINK_ReadReg(R15 (PC))  returns 0x20000000 (0000ms, 0938ms total)
T0928 001:434 JLINK_ClrBPEx(BPHandle = 0x0000000B)  returns 0x00 (0000ms, 0938ms total)
T0928 001:434 JLINK_ReadReg(R0)  returns 0x00000000 (0000ms, 0938ms total)
T0928 001:436 JLINK_WriteMem(0x20000164, 0x0400 Bytes, ...) - Data: FE F7 F6 FA 20 46 29 46 BD E8 F0 81 10 B5 86 B0 ... -- CPU_WriteMem(1024 bytes @ 0x20000164)  returns 0x400 (0015ms, 0953ms total)
T0928 001:451 JLINK_WriteReg(R0, 0x08001C00)  returns 0x00 (0000ms, 0953ms total)
T0928 001:451 JLINK_WriteReg(R1, 0x000003EC)  returns 0x00 (0000ms, 0953ms total)
T0928 001:451 JLINK_WriteReg(R2, 0x20000164)  returns 0x00 (0000ms, 0953ms total)
T0928 001:451 JLINK_WriteReg(R3, 0x00000000)  returns 0x00 (0000ms, 0953ms total)
T0928 001:451 JLINK_WriteReg(R4, 0x00000000)  returns 0x00 (0000ms, 0953ms total)
T0928 001:451 JLINK_WriteReg(R5, 0x00000000)  returns 0x00 (0000ms, 0953ms total)
T0928 001:451 JLINK_WriteReg(R6, 0x00000000)  returns 0x00 (0000ms, 0953ms total)
T0928 001:451 JLINK_WriteReg(R7, 0x00000000)  returns 0x00 (0000ms, 0953ms total)
T0928 001:451 JLINK_WriteReg(R8, 0x00000000)  returns 0x00 (0000ms, 0953ms total)
T0928 001:451 JLINK_WriteReg(R9, 0x20000160)  returns 0x00 (0000ms, 0953ms total)
T0928 001:451 JLINK_WriteReg(R10, 0x00000000)  returns 0x00 (0000ms, 0953ms total)
T0928 001:451 JLINK_WriteReg(R11, 0x00000000)  returns 0x00 (0000ms, 0953ms total)
T0928 001:451 JLINK_WriteReg(R12, 0x00000000)  returns 0x00 (0001ms, 0954ms total)
T0928 001:452 JLINK_WriteReg(R13 (SP), 0x20001000)  returns 0x00 (0000ms, 0954ms total)
T0928 001:452 JLINK_WriteReg(R14, 0x20000001)  returns 0x00 (0000ms, 0954ms total)
T0928 001:452 JLINK_WriteReg(R15 (PC), 0x200000F4)  returns 0x00 (0000ms, 0954ms total)
T0928 001:452 JLINK_WriteReg(XPSR, 0x01000000)  returns 0x00 (0000ms, 0954ms total)
T0928 001:452 JLINK_WriteReg(MSP, 0x20001000)  returns 0x00 (0000ms, 0954ms total)
T0928 001:452 JLINK_WriteReg(PSP, 0x20001000)  returns 0x00 (0000ms, 0954ms total)
T0928 001:452 JLINK_WriteReg(CFBP, 0x00000000)  returns 0x00 (0000ms, 0954ms total)
T0928 001:452 JLINK_SetBPEx(Addr = 0x20000000, Type = 0xFFFFFFF2)  returns 0x0000000C (0000ms, 0954ms total)
T0928 001:452 JLINK_Go() -- CPU_ReadMem(4 bytes @ 0xE0001000) (0004ms, 0958ms total)
T0928 001:456 JLINK_IsHalted()  returns FALSE (0001ms, 0959ms total)
T0928 001:464 JLINK_IsHalted()  returns FALSE (0001ms, 0959ms total)
T0928 001:466 JLINK_IsHalted()  returns FALSE (0001ms, 0959ms total)
T0928 001:468 JLINK_IsHalted()  returns FALSE (0001ms, 0959ms total)
T0928 001:470 JLINK_IsHalted()  returns FALSE (0001ms, 0959ms total)
T0928 001:472 JLINK_IsHalted()  returns FALSE (0001ms, 0959ms total)
T0928 001:474 JLINK_IsHalted()  returns FALSE (0001ms, 0959ms total)
T0928 001:476 JLINK_IsHalted()  returns FALSE (0001ms, 0959ms total)
T0928 001:478 JLINK_IsHalted()  returns FALSE (0001ms, 0959ms total)
T0928 001:481 JLINK_IsHalted()  returns FALSE (0001ms, 0959ms total)
T0928 001:483 JLINK_IsHalted()  returns FALSE (0001ms, 0959ms total)
T0928 001:485 JLINK_IsHalted()  returns FALSE (0001ms, 0959ms total)
T0928 001:487 JLINK_IsHalted() -- CPU_ReadMem(2 bytes @ 0x20000000)  returns TRUE (0005ms, 0963ms total)
T0928 001:492 JLINK_ReadReg(R15 (PC))  returns 0x20000000 (0000ms, 0958ms total)
T0928 001:492 JLINK_ClrBPEx(BPHandle = 0x0000000C)  returns 0x00 (0000ms, 0958ms total)
T0928 001:492 JLINK_ReadReg(R0)  returns 0x00000000 (0000ms, 0958ms total)
T0928 001:492 JLINK_WriteReg(R0, 0x00000002)  returns 0x00 (0000ms, 0958ms total)
T0928 001:492 JLINK_WriteReg(R1, 0x000003EC)  returns 0x00 (0000ms, 0958ms total)
T0928 001:492 JLINK_WriteReg(R2, 0x20000164)  returns 0x00 (0000ms, 0958ms total)
T0928 001:492 JLINK_WriteReg(R3, 0x00000000)  returns 0x00 (0000ms, 0958ms total)
T0928 001:492 JLINK_WriteReg(R4, 0x00000000)  returns 0x00 (0000ms, 0958ms total)
T0928 001:492 JLINK_WriteReg(R5, 0x00000000)  returns 0x00 (0000ms, 0958ms total)
T0928 001:492 JLINK_WriteReg(R6, 0x00000000)  returns 0x00 (0000ms, 0958ms total)
T0928 001:492 JLINK_WriteReg(R7, 0x00000000)  returns 0x00 (0000ms, 0958ms total)
T0928 001:492 JLINK_WriteReg(R8, 0x00000000)  returns 0x00 (0000ms, 0958ms total)
T0928 001:492 JLINK_WriteReg(R9, 0x20000160)  returns 0x00 (0000ms, 0958ms total)
T0928 001:492 JLINK_WriteReg(R10, 0x00000000)  returns 0x00 (0000ms, 0958ms total)
T0928 001:492 JLINK_WriteReg(R11, 0x00000000)  returns 0x00 (0000ms, 0958ms total)
T0928 001:492 JLINK_WriteReg(R12, 0x00000000)  returns 0x00 (0000ms, 0958ms total)
T0928 001:492 JLINK_WriteReg(R13 (SP), 0x20001000)  returns 0x00 (0001ms, 0959ms total)
T0928 001:493 JLINK_WriteReg(R14, 0x20000001)  returns 0x00 (0000ms, 0959ms total)
T0928 001:493 JLINK_WriteReg(R15 (PC), 0x2000006A)  returns 0x00 (0000ms, 0959ms total)
T0928 001:493 JLINK_WriteReg(XPSR, 0x01000000)  returns 0x00 (0000ms, 0959ms total)
T0928 001:493 JLINK_WriteReg(MSP, 0x20001000)  returns 0x00 (0000ms, 0959ms total)
T0928 001:493 JLINK_WriteReg(PSP, 0x20001000)  returns 0x00 (0000ms, 0959ms total)
T0928 001:493 JLINK_WriteReg(CFBP, 0x00000000)  returns 0x00 (0000ms, 0959ms total)
T0928 001:493 JLINK_SetBPEx(Addr = 0x20000000, Type = 0xFFFFFFF2)  returns 0x0000000D (0000ms, 0959ms total)
T0928 001:493 JLINK_Go() -- CPU_ReadMem(4 bytes @ 0xE0001000) (0004ms, 0963ms total)
T0928 001:497 JLINK_IsHalted() -- CPU_ReadMem(2 bytes @ 0x20000000)  returns TRUE (0006ms, 0969ms total)
T0928 001:503 JLINK_ReadReg(R15 (PC))  returns 0x20000000 (0000ms, 0963ms total)
T0928 001:503 JLINK_ClrBPEx(BPHandle = 0x0000000D)  returns 0x00 (0000ms, 0963ms total)
T0928 001:503 JLINK_ReadReg(R0)  returns 0x00000000 (0000ms, 0963ms total)
T0928 001:557 JLINK_WriteMem(0x20000000, 0x0164 Bytes, ...) - Data: 00 BE 0A E0 0D 78 2D 06 68 40 08 24 40 00 00 D3 ... -- CPU_WriteMem(356 bytes @ 0x20000000)  returns 0x164 (0006ms, 0969ms total)
T0928 001:563 JLINK_WriteReg(R0, 0x08000000)  returns 0x00 (0000ms, 0969ms total)
T0928 001:563 JLINK_WriteReg(R1, 0x00B71B00)  returns 0x00 (0000ms, 0969ms total)
T0928 001:563 JLINK_WriteReg(R2, 0x00000003)  returns 0x00 (0000ms, 0969ms total)
T0928 001:563 JLINK_WriteReg(R3, 0x00000000)  returns 0x00 (0000ms, 0969ms total)
T0928 001:563 JLINK_WriteReg(R4, 0x00000000)  returns 0x00 (0000ms, 0969ms total)
T0928 001:563 JLINK_WriteReg(R5, 0x00000000)  returns 0x00 (0001ms, 0970ms total)
T0928 001:564 JLINK_WriteReg(R6, 0x00000000)  returns 0x00 (0000ms, 0970ms total)
T0928 001:564 JLINK_WriteReg(R7, 0x00000000)  returns 0x00 (0000ms, 0970ms total)
T0928 001:564 JLINK_WriteReg(R8, 0x00000000)  returns 0x00 (0000ms, 0970ms total)
T0928 001:564 JLINK_WriteReg(R9, 0x20000160)  returns 0x00 (0000ms, 0970ms total)
T0928 001:564 JLINK_WriteReg(R10, 0x00000000)  returns 0x00 (0000ms, 0970ms total)
T0928 001:564 JLINK_WriteReg(R11, 0x00000000)  returns 0x00 (0000ms, 0970ms total)
T0928 001:564 JLINK_WriteReg(R12, 0x00000000)  returns 0x00 (0000ms, 0970ms total)
T0928 001:564 JLINK_WriteReg(R13 (SP), 0x20001000)  returns 0x00 (0000ms, 0970ms total)
T0928 001:564 JLINK_WriteReg(R14, 0x20000001)  returns 0x00 (0000ms, 0970ms total)
T0928 001:564 JLINK_WriteReg(R15 (PC), 0x20000038)  returns 0x00 (0000ms, 0970ms total)
T0928 001:564 JLINK_WriteReg(XPSR, 0x01000000)  returns 0x00 (0000ms, 0970ms total)
T0928 001:564 JLINK_WriteReg(MSP, 0x20001000)  returns 0x00 (0000ms, 0970ms total)
T0928 001:564 JLINK_WriteReg(PSP, 0x20001000)  returns 0x00 (0000ms, 0970ms total)
T0928 001:564 JLINK_WriteReg(CFBP, 0x00000000)  returns 0x00 (0000ms, 0970ms total)
T0928 001:564 JLINK_SetBPEx(Addr = 0x20000000, Type = 0xFFFFFFF2) -- CPU_ReadMem(2 bytes @ 0x20000000)  returns 0x0000000E (0001ms, 0971ms total)
T0928 001:565 JLINK_Go() -- CPU_WriteMem(2 bytes @ 0x20000000) -- CPU_ReadMem(4 bytes @ 0xE0001000) (0005ms, 0976ms total)
T0928 001:570 JLINK_IsHalted() -- CPU_ReadMem(2 bytes @ 0x20000000)  returns TRUE (0006ms, 0982ms total)
T0928 001:576 JLINK_ReadReg(R15 (PC))  returns 0x20000000 (0000ms, 0976ms total)
T0928 001:576 JLINK_ClrBPEx(BPHandle = 0x0000000E)  returns 0x00 (0000ms, 0976ms total)
T0928 001:576 JLINK_ReadReg(R0)  returns 0x00000000 (0000ms, 0976ms total)
T0928 001:576 JLINK_WriteReg(R0, 0xFFFFFFFF)  returns 0x00 (0000ms, 0976ms total)
T0928 001:576 JLINK_WriteReg(R1, 0x08000000)  returns 0x00 (0000ms, 0976ms total)
T0928 001:576 JLINK_WriteReg(R2, 0x00001FEC)  returns 0x00 (0000ms, 0976ms total)
T0928 001:576 JLINK_WriteReg(R3, 0x04C11DB7)  returns 0x00 (0000ms, 0976ms total)
T0928 001:576 JLINK_WriteReg(R4, 0x00000000)  returns 0x00 (0000ms, 0976ms total)
T0928 001:576 JLINK_WriteReg(R5, 0x00000000)  returns 0x00 (0001ms, 0977ms total)
T0928 001:577 JLINK_WriteReg(R6, 0x00000000)  returns 0x00 (0000ms, 0977ms total)
T0928 001:577 JLINK_WriteReg(R7, 0x00000000)  returns 0x00 (0000ms, 0977ms total)
T0928 001:577 JLINK_WriteReg(R8, 0x00000000)  returns 0x00 (0000ms, 0977ms total)
T0928 001:577 JLINK_WriteReg(R9, 0x20000160)  returns 0x00 (0000ms, 0977ms total)
T0928 001:577 JLINK_WriteReg(R10, 0x00000000)  returns 0x00 (0000ms, 0977ms total)
T0928 001:577 JLINK_WriteReg(R11, 0x00000000)  returns 0x00 (0000ms, 0977ms total)
T0928 001:577 JLINK_WriteReg(R12, 0x00000000)  returns 0x00 (0000ms, 0977ms total)
T0928 001:577 JLINK_WriteReg(R13 (SP), 0x20001000)  returns 0x00 (0000ms, 0977ms total)
T0928 001:577 JLINK_WriteReg(R14, 0x20000001)  returns 0x00 (0000ms, 0977ms total)
T0928 001:577 JLINK_WriteReg(R15 (PC), 0x20000002)  returns 0x00 (0000ms, 0977ms total)
T0928 001:577 JLINK_WriteReg(XPSR, 0x01000000)  returns 0x00 (0000ms, 0977ms total)
T0928 001:577 JLINK_WriteReg(MSP, 0x20001000)  returns 0x00 (0000ms, 0977ms total)
T0928 001:577 JLINK_WriteReg(PSP, 0x20001000)  returns 0x00 (0000ms, 0977ms total)
T0928 001:577 JLINK_WriteReg(CFBP, 0x00000000)  returns 0x00 (0000ms, 0977ms total)
T0928 001:577 JLINK_SetBPEx(Addr = 0x20000000, Type = 0xFFFFFFF2)  returns 0x0000000F (0000ms, 0977ms total)
T0928 001:577 JLINK_Go() -- CPU_ReadMem(4 bytes @ 0xE0001000) (0004ms, 0981ms total)
